;$FILEVERSION=1.1
;$STARTTIME=45366.6773020718
;
;   Start time: 15/03/2024 16:15:18.899.0
;   Generated by PCAN-View v5.2.0.926
;
;   Message Number
;   |         Time Offset (ms)
;   |         |        Type
;   |         |        |        ID (hex)
;   |         |        |        |     Data Length
;   |         |        |        |     |   Data Bytes (hex) ...
;   |         |        |        |     |   |
;---+--   ----+----  --+--  ----+---  +  -+ -- -- -- -- -- -- --
     1)       746.9  Rx         0000  8  02 1E 00 00 00 00 00 00 
     2)      1747.0  Rx         0000  8  02 1F 00 00 00 00 00 00 
     3)      2747.1  Rx         0000  8  02 20 00 00 00 00 00 00 
     4)      3747.3  Rx         0000  8  02 21 00 00 00 00 00 00 
     5)      4747.4  Rx         0000  8  02 22 00 00 00 00 00 00 
     6)      5747.5  Rx         0000  8  02 23 00 00 00 00 00 00 
     7)      6747.6  Rx         0000  8  02 24 00 00 00 00 00 00 
     8)      7747.8  Rx         0000  8  02 25 00 00 00 00 00 00 
     9)      8747.9  Rx         0000  8  02 26 00 00 00 00 00 00 
    10)      9748.0  Rx         0000  8  02 27 00 00 00 00 00 00 
    11)     10748.1  Rx         0000  8  02 28 00 00 00 00 00 00 
    12)     11748.3  Rx         0000  8  02 29 00 00 00 00 00 00 
    13)     12748.4  Rx         0000  8  02 2A 00 00 00 00 00 00 
    14)     13748.5  Rx         0000  8  02 2B 00 00 00 00 00 00 
    15)     14748.6  Rx         0000  8  02 2C 00 00 00 00 00 00 
    16)     15748.8  Rx         0000  8  02 2D 00 00 00 00 00 00 
    17)     16748.9  Rx         0000  8  02 2E 00 00 00 00 00 00 
    18)     17749.0  Rx         0000  8  02 2F 00 00 00 00 00 00 
    19)     18749.1  Rx         0000  8  02 30 00 00 00 00 00 00 
    20)     19749.3  Rx         0000  8  02 31 00 00 00 00 00 00 
    21)     20749.4  Rx         0000  8  02 32 00 00 00 00 00 00 
    22)     21749.5  Rx         0000  8  02 33 00 00 00 00 00 00 
    23)     22749.7  Rx         0000  8  02 34 00 00 00 00 00 00 
    24)     23749.8  Rx         0000  8  02 35 00 00 00 00 00 00 
    25)     24749.9  Rx         0000  8  02 36 00 00 00 00 00 00 
    26)     25750.0  Rx         0000  8  02 37 00 00 00 00 00 00 
    27)     26750.2  Rx         0000  8  02 38 00 00 00 00 00 00 
    28)     27750.3  Rx         0000  8  02 39 00 00 00 00 00 00 
    29)     28750.4  Rx         0000  8  02 3A 00 00 00 00 00 00 
    30)     29750.5  Rx         0000  8  02 3B 00 00 00 00 00 00 
    31)     30750.7  Rx         0000  8  02 3C 00 00 00 00 00 00 
    32)     31750.8  Rx         0000  8  02 3D 00 00 00 00 00 00 
    33)     32750.9  Rx         0000  8  02 3E 00 00 00 00 00 00 
    34)     33751.0  Rx         0000  8  02 3F 00 00 00 00 00 00 
    35)     34751.2  Rx         0000  8  02 40 00 00 00 00 00 00 
    36)     35751.3  Rx         0000  8  02 41 00 00 00 00 00 00 
    37)     36751.4  Rx         0000  8  02 42 00 00 00 00 00 00 
    38)     37751.5  Rx         0000  8  02 43 00 00 00 00 00 00 
    39)     38751.7  Rx         0000  8  02 44 00 00 00 00 00 00 
    40)     39751.8  Rx         0000  8  02 45 00 00 00 00 00 00 
    41)     40751.9  Rx         0000  8  02 46 00 00 00 00 00 00 
    42)     41752.0  Rx         0000  8  02 47 00 00 00 00 00 00 
    43)     42752.2  Rx         0000  8  02 48 00 00 00 00 00 00 
    44)     43752.3  Rx         0000  8  02 49 00 00 00 00 00 00 
    45)     44752.4  Rx         0000  8  02 4A 00 00 00 00 00 00 
    46)     45752.5  Rx         0000  8  02 4B 00 00 00 00 00 00 
    47)     46752.7  Rx         0000  8  02 4C 00 00 00 00 00 00 
    48)     47752.8  Rx         0000  8  02 4D 00 00 00 00 00 00 
    49)     48752.9  Rx         0000  8  02 4E 00 00 00 00 00 00 
    50)     49753.0  Rx         0000  8  02 4F 00 00 00 00 00 00 
    51)     50753.2  Rx         0000  8  02 50 00 00 00 00 00 00 
    52)     51753.3  Rx         0000  8  02 51 00 00 00 00 00 00 
    53)     52753.4  Rx         0000  8  02 52 00 00 00 00 00 00 
    54)     53753.5  Rx         0000  8  02 53 00 00 00 00 00 00 
    55)     54753.7  Rx         0000  8  02 54 00 00 00 00 00 00 
    56)     55753.8  Rx         0000  8  02 55 00 00 00 00 00 00 
    57)     56753.9  Rx         0000  8  02 56 00 00 00 00 00 00 
    58)     57754.1  Rx         0000  8  02 57 00 00 00 00 00 00 
    59)     58754.2  Rx         0000  8  02 58 00 00 00 00 00 00 
    60)     59754.3  Rx         0000  8  02 59 00 00 00 00 00 00 
    61)     60754.4  Rx         0000  8  02 5A 00 00 00 00 00 00 
    62)     61754.6  Rx         0000  8  02 5B 00 00 00 00 00 00 
    63)     62754.7  Rx         0000  8  02 5C 00 00 00 00 00 00 
    64)     63754.8  Rx         0000  8  02 5D 00 00 00 00 00 00 
    65)     64754.9  Rx         0000  8  02 5E 00 00 00 00 00 00 
    66)     65755.1  Rx         0000  8  02 5F 00 00 00 00 00 00 
    67)     66755.2  Rx         0000  8  02 60 00 00 00 00 00 00 
    68)     67755.3  Rx         0000  8  02 61 00 00 00 00 00 00 
    69)     68755.4  Rx         0000  8  02 62 00 00 00 00 00 00 
    70)     69755.6  Rx         0000  8  02 63 00 00 00 00 00 00 
